     0  1  2  3  4  5  6  7  8  9  a  b  c  d  e  f    0123456789abcdef
00: 03 03 00 20 11 00 11 00 00 01 00 00 f8 3f 00 00    ??. ?.?..?..??..
10: 01 fc 28 00 00 33 00 00 88 06 22 03 0f 00 80 80    ??(..3..??"??.??
20: 00 00 c0 00 01 08 10 c0 00 1c 00 b0 32 03 00 11    ..?.????.?.?2?.?
30: 10 00 00 c0 c0 1f f7 fd ff 1f f7 fd ff 1f f7 fd    ?..?????.???.???
40: ff 1f f7 fd ff 1f f7 fd ff 1f f7 fd ff 00 00 00    .???.???.???....
50: 00 00 00 00 00 00 00 00 00 00 00 00 00 00 00 00    ................
60: 00 00 00 00 00 00 00 00 00 00 00 00 00 00 00 00    ................
70: 00 00 00 00 00 00 00 00 00 00 00 00 00 00 00 00    ................
80: 03 03 00 20 11 00 11 00 00 01 00 00 f8 3f 00 00    ??. ?.?..?..??..
90: 01 fc 28 00 00 33 00 00 88 06 22 03 0f 00 80 80    ??(..3..??"??.??
a0: 00 00 c0 00 01 08 10 c0 00 1c 00 b0 32 03 00 11    ..?.????.?.?2?.?
b0: 10 00 00 c0 c0 1f f7 fd ff 1f f7 fd ff 1f f7 fd    ?..?????.???.???
c0: ff 1f f7 fd ff 1f f7 fd ff 1f f7 fd ff 00 00 00    .???.???.???....
d0: 00 00 00 00 00 00 00 00 00 00 00 00 00 00 00 00    ................
e0: 00 00 00 00 00 00 00 00 00 00 00 00 00 00 00 00    ................
f0: 00 00 00 00 00 00 00 00 00 00 00 00 00 00 00 00    ................
