     0  1  2  3  4  5  6  7  8  9  a  b  c  d  e  f    0123456789abcdef
00: 00 30 c0 51 00 00 00 00 00 00 00 00 00 00 00 00    .0?Q............
10: 7f 00 XX d4 48 16 1a 1a 1a 12 16 16 0b 0b 00 00    ?.X?H?????????..
20: 02 9b b2 93 ac ad 96 f4 15 1a 1a 00 01 30 40 00    ???????????.?0@.
30: 01 03 4b d9 00 18 0b 00 bc 10 80 08 fc 16 00 00    ??K?.??.??????..
40: fc 00 00 87 7c 00 00 00 00 00 00 04 00 00 00 00    ?..?|......?....
50: d3 06 00 00 84 09 b2 0a 2e 06 00 03 00 00 00 00    ??..????.?.?....
60: 00 00 00 00 00 00 00 00 00 00 00 00 00 00 00 00    ................
70: 00 00 00 00 00 00 00 00 d3 06 00 00 8b 02 00 00    ........??..??..
80: 00 80 f1 00 f3 b4 00 00 00 00 00 00 00 00 40 0c    .??.??........@?
90: 07 1a 03 1a 00 00 00 00 00 00 05 a0 d0 20 18 00    ????......??? ?.
a0: d3 03 00 00 81 09 25 00 00 00 00 00 00 00 00 00    ??..??%.........
b0: 00 00 00 00 00 00 00 00 e0 dd XX 00 df 08 00 00    ........??X.??..
c0: 00 00 00 00 00 00 01 02 03 04 08 0f 17 27 32 36    ......???????'26
d0: 39 3d 41 46 4b 4f 54 58 5c 60 62 64 64 64 64 64    9=AFKOTX\`bddddd
e0: 95 68 93 f6 b7 dd a0 00 00 00 00 00 00 00 50 00    ?h?????.......P.
f0: 01 00 84 03 06 00 00 00 00 XX 00 00 00 00 00 00    ?.???....X......
